T5D7C 000:294.085   SEGGER J-Link V7.96b Log File
T5D7C 000:294.194   DLL Compiled: Mar 20 2024 16:53:15
T5D7C 000:294.198   Logging started @ 2024-03-25 10:42
T5D7C 000:294.203   Process: C:\Keil_v5\UV4\UV4.exe
T5D7C 000:294.209 - 294.207ms
T5D7C 000:294.217 JLINK_SetWarnOutHandler(...)
T5D7C 000:294.221 - 0.006ms
T5D7C 000:294.226 JLINK_OpenEx(...)
T5D7C 000:547.819   Firmware: J-Link V9 compiled May  7 2021 16:26:12
T5D7C 000:549.293   Firmware: J-Link V9 compiled May  7 2021 16:26:12
T5D7C 000:549.413   Decompressing FW timestamp took 99 us
T5D7C 000:559.457   Hardware: V9.40
T5D7C 000:559.469   S/N: 69404704
T5D7C 000:559.475   OEM: SEGGER
T5D7C 000:559.481   Feature(s): RDI, GDB, FlashDL, FlashBP, JFlash
T5D7C 000:561.083   Bootloader: (Could not read)
T5D7C 000:574.584   TELNET listener socket opened on port 19021
T5D7C 000:574.711   WEBSRV WEBSRV_Init(): Starting webserver thread(s)
T5D7C 000:574.784   WEBSRV Failed to put socket into listener state (port 19080)
T5D7C 000:574.793   WEBSRV Failed to put socket into listener state (port 19081)
T5D7C 000:574.801   WEBSRV Failed to put socket into listener state (port 19082)
T5D7C 000:574.881   WEBSRV Webserver running on local port 19083
T5D7C 000:574.984   Looking for J-Link GUI Server exe at: C:\Keil_v5\ARM\Segger\JLinkGUIServer.exe
T5D7C 000:575.021   Looking for J-Link GUI Server exe at: C:\Program Files\SEGGER\JLink_V796b\JLinkGUIServer.exe
T5D7C 000:575.045   Forking J-Link GUI Server: C:\Program Files\SEGGER\JLink_V796b\JLinkGUIServer.exe
T5D7C 000:577.658   J-Link GUI Server info: "J-Link GUI server V7.88j "
T5D7C 000:578.086 - 283.852ms returns "O.K."
T5D7C 000:578.115 JLINK_SetErrorOutHandler(...)
T5D7C 000:578.121 - 0.006ms
T5D7C 000:578.142 JLINK_ExecCommand("ProjectFile = "C:\bootloader\nrf_bootloader\examples\dfu\secure_bootloader\pca10040_s132_ble_debug\arm5_no_packs\JLinkSettings.ini"", ...). 
T5D7C 000:589.344   Ref file found at: C:\Keil_v5\ARM\Segger\JLinkDevices.ref
T5D7C 000:589.412   REF file references invalid XML file: C:\Program Files\SEGGER\JLink_V796b\JLinkDevices.xml
T5D7C 000:590.585 - 12.438ms returns 0x00
T5D7C 000:594.225 JLINK_ExecCommand("Device = nRF52832_xxAA", ...). 
T5D7C 000:598.686   Device "NRF52832_XXAA" selected.
T5D7C 000:599.007 - 4.762ms returns 0x00
T5D7C 000:599.026 JLINK_ExecCommand("DisableConnectionTimeout", ...). 
T5D7C 000:599.034 - 0.002ms returns 0x01
T5D7C 000:599.040 JLINK_GetHardwareVersion()
T5D7C 000:599.046 - 0.004ms returns 94000
T5D7C 000:599.051 JLINK_GetDLLVersion()
T5D7C 000:599.055 - 0.004ms returns 79602
T5D7C 000:599.060 JLINK_GetOEMString(...)
T5D7C 000:599.065 JLINK_GetFirmwareString(...)
T5D7C 000:599.069 - 0.004ms
T5D7C 000:614.503 JLINK_GetDLLVersion()
T5D7C 000:614.534 - 0.030ms returns 79602
T5D7C 000:614.540 JLINK_GetCompileDateTime()
T5D7C 000:614.544 - 0.004ms
T5D7C 000:618.861 JLINK_GetFirmwareString(...)
T5D7C 000:618.886 - 0.024ms
T5D7C 000:622.378 JLINK_GetHardwareVersion()
T5D7C 000:622.394 - 0.016ms returns 94000
T5D7C 000:625.707 JLINK_GetSN()
T5D7C 000:625.726 - 0.018ms returns 69404704
T5D7C 000:639.927 JLINK_GetOEMString(...)
T5D7C 000:647.685 JLINK_TIF_Select(JLINKARM_TIF_SWD)
T5D7C 000:649.408 - 1.721ms returns 0x00
T5D7C 000:649.420 JLINK_HasError()
T5D7C 000:649.430 JLINK_SetSpeed(2000)
T5D7C 000:649.717 - 0.288ms
T5D7C 000:649.723 JLINK_GetId()
T5D7C 000:653.380   InitTarget() start
T5D7C 000:653.399    J-Link Script File: Executing InitTarget()
T5D7C 000:662.062   InitTarget() end - Took 5.73ms
T5D7C 000:666.367   Found SW-DP with ID 0x2BA01477
T5D7C 000:674.009   DPIDR: 0x2BA01477
T5D7C 000:680.036   CoreSight SoC-400 or earlier
T5D7C 000:682.969   Scanning AP map to find all available APs
T5D7C 000:687.856   AP[2]: Stopped AP scan as end of AP map has been reached
T5D7C 000:691.070   AP[0]: AHB-AP (IDR: 0x24770011)
T5D7C 000:697.752   AP[1]: JTAG-AP (IDR: 0x02880000)
T5D7C 000:702.538   Iterating through AP map to find AHB-AP to use
T5D7C 000:706.980   AP[0]: Core found
T5D7C 000:709.780   AP[0]: AHB-AP ROM base: 0xE00FF000
T5D7C 000:713.467   CPUID register: 0x410FC241. Implementer code: 0x41 (ARM)
T5D7C 000:716.413   Found Cortex-M4 r0p1, Little endian.
T5D7C 000:717.685   -- Max. mem block: 0x0000B508
T5D7C 000:719.142   CPU_ReadMem(4 bytes @ 0xE000EDF0)
T5D7C 000:719.790   CPU_ReadMem(4 bytes @ 0xE0002000)
T5D7C 000:723.202   FPUnit: 6 code (BP) slots and 2 literal slots
T5D7C 000:723.236   CPU_ReadMem(4 bytes @ 0xE000EDFC)
T5D7C 000:723.937   CPU_WriteMem(4 bytes @ 0xE000EDFC)
T5D7C 000:725.251   CPU_ReadMem(4 bytes @ 0xE0001000)
T5D7C 000:726.126   CPU_WriteMem(4 bytes @ 0xE0001000)
T5D7C 000:727.076   CPU_ReadMem(4 bytes @ 0xE000ED88)
T5D7C 000:727.844   CPU_WriteMem(4 bytes @ 0xE000ED88)
T5D7C 000:728.586   CPU_ReadMem(4 bytes @ 0xE000ED88)
T5D7C 000:729.296   CPU_WriteMem(4 bytes @ 0xE000ED88)
T5D7C 000:732.910   CoreSight components:
T5D7C 000:736.052   ROMTbl[0] @ E00FF000
T5D7C 000:736.091   CPU_ReadMem(64 bytes @ 0xE00FF000)
T5D7C 000:737.694   CPU_ReadMem(32 bytes @ 0xE000EFE0)
T5D7C 000:741.413   [0][0]: E000E000 CID B105E00D PID 000BB00C SCS-M7
T5D7C 000:741.440   CPU_ReadMem(32 bytes @ 0xE0001FE0)
T5D7C 000:745.431   [0][1]: E0001000 CID B105E00D PID 003BB002 DWT
T5D7C 000:745.467   CPU_ReadMem(32 bytes @ 0xE0002FE0)
T5D7C 000:749.311   [0][2]: E0002000 CID B105E00D PID 002BB003 FPB
T5D7C 000:749.351   CPU_ReadMem(32 bytes @ 0xE0000FE0)
T5D7C 000:753.269   [0][3]: E0000000 CID B105E00D PID 003BB001 ITM
T5D7C 000:753.300   CPU_ReadMem(32 bytes @ 0xE0040FE0)
T5D7C 000:759.680   [0][4]: E0040000 CID B105900D PID 000BB9A1 TPIU
T5D7C 000:759.716   CPU_ReadMem(32 bytes @ 0xE0041FE0)
T5D7C 000:763.545   [0][5]: E0041000 CID B105900D PID 000BB925 ETM
T5D7C 000:764.064 - 114.340ms returns 0x2BA01477
T5D7C 000:764.088 JLINK_GetDLLVersion()
T5D7C 000:764.093 - 0.004ms returns 79602
T5D7C 000:764.147 JLINK_CORE_GetFound()
T5D7C 000:764.162 - 0.016ms returns 0xE0000FF
T5D7C 000:764.168 JLINK_GetDebugInfo(0x100 = JLINKARM_ROM_TABLE_ADDR_INDEX)
T5D7C 000:764.174   Value=0xE00FF000
T5D7C 000:764.180 - 0.012ms returns 0
T5D7C 000:766.738 JLINK_GetDebugInfo(0x100 = JLINKARM_ROM_TABLE_ADDR_INDEX)
T5D7C 000:766.753   Value=0xE00FF000
T5D7C 000:766.760 - 0.022ms returns 0
T5D7C 000:766.765 JLINK_GetDebugInfo(0x101 = JLINKARM_DEBUG_INFO_ETM_ADDR_INDEX)
T5D7C 000:766.770   Value=0xE0041000
T5D7C 000:766.775 - 0.010ms returns 0
T5D7C 000:766.780 JLINK_GetDebugInfo(0x102 = JLINKARM_DEBUG_INFO_MTB_ADDR_INDEX)
T5D7C 000:766.784   Value=0x00000000
T5D7C 000:766.790 - 0.010ms returns 0
T5D7C 000:766.795 JLINK_GetDebugInfo(0x103 = JLINKARM_DEBUG_INFO_TPIU_ADDR_INDEX)
T5D7C 000:766.799   Value=0xE0040000
T5D7C 000:766.805 - 0.010ms returns 0
T5D7C 000:766.810 JLINK_GetDebugInfo(0x104 = JLINKARM_DEBUG_INFO_ITM_ADDR_INDEX)
T5D7C 000:766.814   Value=0xE0000000
T5D7C 000:766.819 - 0.009ms returns 0
T5D7C 000:766.824 JLINK_GetDebugInfo(0x105 = JLINKARM_DEBUG_INFO_DWT_ADDR_INDEX)
T5D7C 000:766.828   Value=0xE0001000
T5D7C 000:766.834 - 0.009ms returns 0
T5D7C 000:766.839 JLINK_GetDebugInfo(0x106 = JLINKARM_DEBUG_INFO_FPB_ADDR_INDEX)
T5D7C 000:766.843   Value=0xE0002000
T5D7C 000:766.848 - 0.009ms returns 0
T5D7C 000:766.853 JLINK_GetDebugInfo(0x107 = JLINKARM_DEBUG_INFO_NVIC_ADDR_INDEX)
T5D7C 000:766.857   Value=0xE000E000
T5D7C 000:766.863 - 0.009ms returns 0
T5D7C 000:766.868 JLINK_GetDebugInfo(0x10C = JLINKARM_DEBUG_INFO_DBG_ADDR_INDEX)
T5D7C 000:766.872   Value=0xE000EDF0
T5D7C 000:766.877 - 0.009ms returns 0
T5D7C 000:766.886 JLINK_ReadMemU32(0xE000EF40, 0x1 Items)
T5D7C 000:766.908   CPU_ReadMem(4 bytes @ 0xE000EF40)
T5D7C 000:768.251   Data:  21 00 11 10
T5D7C 000:768.279 - 1.391ms returns 1 (0x1)
T5D7C 000:768.290 JLINK_ReadMemU32(0xE000EF44, 0x1 Items)
T5D7C 000:768.298   CPU_ReadMem(4 bytes @ 0xE000EF44)
T5D7C 000:769.482   Data:  11 00 00 11
T5D7C 000:769.496 - 1.206ms returns 1 (0x1)
T5D7C 000:769.504 JLINK_ReadMemU32(0xE000ED00, 0x1 Items)
T5D7C 000:769.513   CPU_ReadMem(4 bytes @ 0xE000ED00)
T5D7C 000:770.751   Data:  41 C2 0F 41
T5D7C 000:770.761   Debug reg: CPUID
T5D7C 000:770.773 - 1.269ms returns 1 (0x1)
T5D7C 000:770.781 JLINK_HasError()
T5D7C 000:770.787 JLINK_SetResetType(JLINKARM_CM3_RESET_TYPE_NORMAL)
T5D7C 000:770.792 - 0.005ms returns JLINKARM_CM3_RESET_TYPE_NORMAL
T5D7C 000:770.797 JLINK_Reset()
T5D7C 000:770.810   CPU is running
T5D7C 000:770.818   CPU_WriteMem(4 bytes @ 0xE000EDF0)
T5D7C 000:772.120   CPU is running
T5D7C 000:772.151   CPU_WriteMem(4 bytes @ 0xE000EDFC)
T5D7C 000:776.282   Reset: Halt core after reset via DEMCR.VC_CORERESET.
T5D7C 000:780.453   Reset: Reset device via AIRCR.SYSRESETREQ.
T5D7C 000:780.484   CPU is running
T5D7C 000:780.495   CPU_WriteMem(4 bytes @ 0xE000ED0C)
T5D7C 000:835.683   CPU_ReadMem(4 bytes @ 0xE000EDF0)
T5D7C 000:836.559   CPU_ReadMem(4 bytes @ 0xE000EDF0)
T5D7C 000:843.181   CPU_WriteMem(4 bytes @ 0xE000EDFC)
T5D7C 000:850.371   CPU_ReadMem(4 bytes @ 0xE000EDF0)
T5D7C 000:856.976   CPU_WriteMem(4 bytes @ 0xE0002000)
T5D7C 000:857.932   CPU_ReadMem(4 bytes @ 0xE000EDFC)
T5D7C 000:858.577   CPU_ReadMem(4 bytes @ 0xE0001000)
T5D7C 000:859.306 - 88.508ms
T5D7C 000:859.326 JLINK_Halt()
T5D7C 000:859.331 - 0.004ms returns 0x00
T5D7C 000:859.336 JLINK_IsHalted()
T5D7C 000:859.340 - 0.004ms returns TRUE
T5D7C 000:859.346 JLINK_ReadMemU32(0xE000EDF0, 0x1 Items)
T5D7C 000:859.355   CPU_ReadMem(4 bytes @ 0xE000EDF0)
T5D7C 000:861.712   Data:  03 00 03 00
T5D7C 000:861.725   Debug reg: DHCSR
T5D7C 000:861.732 - 2.385ms returns 1 (0x1)
T5D7C 000:861.751 JLINK_WriteU32_64(0xE000EDF0, 0xA05F0003)
T5D7C 000:861.755   Debug reg: DHCSR
T5D7C 000:862.042   CPU_WriteMem(4 bytes @ 0xE000EDF0)
T5D7C 000:862.870 - 1.120ms returns 0 (0x00000000)
T5D7C 000:862.885 JLINK_WriteU32_64(0xE000EDFC, 0x01000000)
T5D7C 000:862.891   Debug reg: DEMCR
T5D7C 000:862.906   CPU_WriteMem(4 bytes @ 0xE000EDFC)
T5D7C 000:864.169 - 1.283ms returns 0 (0x00000000)
T5D7C 000:876.876 JLINK_GetHWStatus(...)
T5D7C 000:877.891 - 1.014ms returns 0
T5D7C 000:887.929 JLINK_GetNumBPUnits(Type = 0xFFFFFF00)
T5D7C 000:887.953 - 0.024ms returns 0x06
T5D7C 000:887.959 JLINK_GetNumBPUnits(Type = 0xF0)
T5D7C 000:887.964 - 0.004ms returns 0x2000
T5D7C 000:887.969 JLINK_GetNumWPUnits()
T5D7C 000:887.973 - 0.003ms returns 4
T5D7C 000:897.198 JLINK_GetSpeed()
T5D7C 000:897.225 - 0.027ms returns 2000
T5D7C 000:902.677 JLINK_ReadMemU32(0xE000E004, 0x1 Items)
T5D7C 000:902.710   CPU_ReadMem(4 bytes @ 0xE000E004)
T5D7C 000:904.276   Data:  01 00 00 00
T5D7C 000:904.310 - 1.633ms returns 1 (0x1)
T5D7C 000:904.329 JLINK_ReadMemU32(0xE000E004, 0x1 Items)
T5D7C 000:904.338   CPU_ReadMem(4 bytes @ 0xE000E004)
T5D7C 000:905.551   Data:  01 00 00 00
T5D7C 000:905.558 - 1.228ms returns 1 (0x1)
T5D7C 000:905.564 JLINK_WriteMem(0xE0001000, 0x1C Bytes, ...)
T5D7C 000:905.569   Data:  01 00 00 00 00 00 00 00 00 00 00 00 00 00 00 00 ...
T5D7C 000:905.580   CPU_WriteMem(28 bytes @ 0xE0001000)
T5D7C 000:907.004 - 1.439ms returns 0x1C
T5D7C 000:907.014 JLINK_ReadMem(0xE0001000, 0x1C Bytes, ...)
T5D7C 000:907.020   CPU_ReadMem(28 bytes @ 0xE0001000)
T5D7C 000:908.435   Data:  01 00 00 40 00 00 00 00 00 00 00 00 00 00 00 00 ...
T5D7C 000:908.464 - 1.449ms returns 0
T5D7C 000:908.482 JLINK_Halt()
T5D7C 000:908.486 - 0.004ms returns 0x00
T5D7C 000:908.491 JLINK_IsHalted()
T5D7C 000:908.496 - 0.004ms returns TRUE
T5D7C 000:913.831 JLINK_WriteMem(0x20000000, 0x5B8 Bytes, ...)
T5D7C 000:913.844   Data:  00 BE 0A E0 0D 78 2D 06 68 40 08 24 40 00 00 D3 ...
T5D7C 000:914.110   CPU_WriteMem(1464 bytes @ 0x20000000)
T5D7C 000:930.234 - 16.402ms returns 0x5B8
T5D7C 000:930.315 JLINK_HasError()
T5D7C 000:930.332 JLINK_WriteReg(R0, 0x00000000)
T5D7C 000:930.341 - 0.018ms returns 0
T5D7C 000:930.346 JLINK_WriteReg(R1, 0x03D09000)
T5D7C 000:930.351 - 0.004ms returns 0
T5D7C 000:930.355 JLINK_WriteReg(R2, 0x00000001)
T5D7C 000:930.359 - 0.004ms returns 0
T5D7C 000:930.364 JLINK_WriteReg(R3, 0x00000000)
T5D7C 000:930.368 - 0.004ms returns 0
T5D7C 000:930.373 JLINK_WriteReg(R4, 0x00000000)
T5D7C 000:930.377 - 0.004ms returns 0
T5D7C 000:930.382 JLINK_WriteReg(R5, 0x00000000)
T5D7C 000:930.391 - 0.008ms returns 0
T5D7C 000:930.396 JLINK_WriteReg(R6, 0x00000000)
T5D7C 000:930.400 - 0.004ms returns 0
T5D7C 000:930.405 JLINK_WriteReg(R7, 0x00000000)
T5D7C 000:930.409 - 0.004ms returns 0
T5D7C 000:930.414 JLINK_WriteReg(R8, 0x00000000)
T5D7C 000:930.418 - 0.004ms returns 0
T5D7C 000:930.423 JLINK_WriteReg(R9, 0x200005B4)
T5D7C 000:930.427 - 0.004ms returns 0
T5D7C 000:930.432 JLINK_WriteReg(R10, 0x00000000)
T5D7C 000:930.436 - 0.004ms returns 0
T5D7C 000:930.440 JLINK_WriteReg(R11, 0x00000000)
T5D7C 000:930.445 - 0.004ms returns 0
T5D7C 000:930.449 JLINK_WriteReg(R12, 0x00000000)
T5D7C 000:930.453 - 0.004ms returns 0
T5D7C 000:930.458 JLINK_WriteReg(R13 (SP), 0x20002000)
T5D7C 000:930.463 - 0.005ms returns 0
T5D7C 000:930.468 JLINK_WriteReg(R14, 0x20000001)
T5D7C 000:930.472 - 0.004ms returns 0
T5D7C 000:930.479 JLINK_WriteReg(R15 (PC), 0x20000020)
T5D7C 000:930.483 - 0.006ms returns 0
T5D7C 000:930.488 JLINK_WriteReg(XPSR, 0x01000000)
T5D7C 000:930.492 - 0.004ms returns 0
T5D7C 000:930.497 JLINK_WriteReg(MSP, 0x20002000)
T5D7C 000:930.501 - 0.004ms returns 0
T5D7C 000:930.506 JLINK_WriteReg(PSP, 0x20002000)
T5D7C 000:930.510 - 0.004ms returns 0
T5D7C 000:930.514 JLINK_WriteReg(CFBP, 0x00000000)
T5D7C 000:930.518 - 0.004ms returns 0
T5D7C 000:930.524 JLINK_SetBPEx(Addr = 0x20000000, Type = 0xFFFFFFF2)
T5D7C 000:930.537   CPU_ReadMem(2 bytes @ 0x20000000)
T5D7C 000:932.600 - 2.075ms returns 0x00000001
T5D7C 000:932.619 JLINK_Go()
T5D7C 000:932.633   CPU_WriteMem(2 bytes @ 0x20000000)
T5D7C 000:934.732   CPU_ReadMem(4 bytes @ 0xE0001000)
T5D7C 000:935.968   CPU_WriteMem(4 bytes @ 0xE0002008)
T5D7C 000:935.985   CPU_WriteMem(4 bytes @ 0xE000200C)
T5D7C 000:935.992   CPU_WriteMem(4 bytes @ 0xE0002010)
T5D7C 000:935.997   CPU_WriteMem(4 bytes @ 0xE0002014)
T5D7C 000:936.003   CPU_WriteMem(4 bytes @ 0xE0002018)
T5D7C 000:936.009   CPU_WriteMem(4 bytes @ 0xE000201C)
T5D7C 000:939.643   CPU_WriteMem(4 bytes @ 0xE0001004)
T5D7C 000:949.957   Memory map 'after startup completion point' is active
T5D7C 000:949.987 - 17.367ms
T5D7C 000:950.004 JLINK_IsHalted()
T5D7C 000:957.454   CPU_ReadMem(2 bytes @ 0x20000000)
T5D7C 000:958.760 - 8.755ms returns TRUE
T5D7C 000:958.778 JLINK_ReadReg(R15 (PC))
T5D7C 000:958.786 - 0.008ms returns 0x20000000
T5D7C 000:958.791 JLINK_ClrBPEx(BPHandle = 0x00000001)
T5D7C 000:958.809 - 0.017ms returns 0x00
T5D7C 000:958.814 JLINK_ReadReg(R0)
T5D7C 000:958.819 - 0.004ms returns 0x00000000
T5D7C 000:959.425 JLINK_HasError()
T5D7C 000:959.439 JLINK_WriteReg(R0, 0x00071000)
T5D7C 000:959.446 - 0.006ms returns 0
T5D7C 000:959.450 JLINK_WriteReg(R1, 0x00001000)
T5D7C 000:959.454 - 0.004ms returns 0
T5D7C 000:959.459 JLINK_WriteReg(R2, 0x000000FF)
T5D7C 000:959.463 - 0.003ms returns 0
T5D7C 000:959.467 JLINK_WriteReg(R3, 0x00000000)
T5D7C 000:959.471 - 0.003ms returns 0
T5D7C 000:959.476 JLINK_WriteReg(R4, 0x00000000)
T5D7C 000:959.480 - 0.003ms returns 0
T5D7C 000:959.484 JLINK_WriteReg(R5, 0x00000000)
T5D7C 000:959.488 - 0.004ms returns 0
T5D7C 000:959.492 JLINK_WriteReg(R6, 0x00000000)
T5D7C 000:959.496 - 0.003ms returns 0
T5D7C 000:959.501 JLINK_WriteReg(R7, 0x00000000)
T5D7C 000:959.505 - 0.003ms returns 0
T5D7C 000:959.509 JLINK_WriteReg(R8, 0x00000000)
T5D7C 000:959.513 - 0.004ms returns 0
T5D7C 000:959.517 JLINK_WriteReg(R9, 0x200005B4)
T5D7C 000:959.521 - 0.003ms returns 0
T5D7C 000:959.526 JLINK_WriteReg(R10, 0x00000000)
T5D7C 000:959.530 - 0.004ms returns 0
T5D7C 000:959.534 JLINK_WriteReg(R11, 0x00000000)
T5D7C 000:959.538 - 0.004ms returns 0
T5D7C 000:959.542 JLINK_WriteReg(R12, 0x00000000)
T5D7C 000:959.546 - 0.003ms returns 0
T5D7C 000:959.551 JLINK_WriteReg(R13 (SP), 0x20002000)
T5D7C 000:959.555 - 0.004ms returns 0
T5D7C 000:959.560 JLINK_WriteReg(R14, 0x20000001)
T5D7C 000:959.564 - 0.004ms returns 0
T5D7C 000:959.568 JLINK_WriteReg(R15 (PC), 0x20000288)
T5D7C 000:959.572 - 0.004ms returns 0
T5D7C 000:959.577 JLINK_WriteReg(XPSR, 0x01000000)
T5D7C 000:959.627 - 0.050ms returns 0
T5D7C 000:959.634 JLINK_WriteReg(MSP, 0x20002000)
T5D7C 000:959.638 - 0.004ms returns 0
T5D7C 000:959.643 JLINK_WriteReg(PSP, 0x20002000)
T5D7C 000:959.647 - 0.003ms returns 0
T5D7C 000:959.651 JLINK_WriteReg(CFBP, 0x00000000)
T5D7C 000:959.655 - 0.003ms returns 0
T5D7C 000:959.661 JLINK_SetBPEx(Addr = 0x20000000, Type = 0xFFFFFFF2)
T5D7C 000:959.665 - 0.005ms returns 0x00000002
T5D7C 000:959.670 JLINK_Go()
T5D7C 000:959.682   CPU_ReadMem(4 bytes @ 0xE0001000)
T5D7C 000:967.232 - 7.561ms
T5D7C 000:967.267 JLINK_IsHalted()
T5D7C 000:975.027   CPU_ReadMem(2 bytes @ 0x20000000)
T5D7C 000:976.255 - 8.987ms returns TRUE
T5D7C 000:976.269 JLINK_ReadReg(R15 (PC))
T5D7C 000:976.276 - 0.007ms returns 0x20000000
T5D7C 000:976.281 JLINK_ClrBPEx(BPHandle = 0x00000002)
T5D7C 000:976.286 - 0.004ms returns 0x00
T5D7C 000:976.291 JLINK_ReadReg(R0)
T5D7C 000:976.295 - 0.004ms returns 0x00000001
T5D7C 000:976.301 JLINK_HasError()
T5D7C 000:976.306 JLINK_WriteReg(R0, 0x00071000)
T5D7C 000:976.311 - 0.004ms returns 0
T5D7C 000:976.315 JLINK_WriteReg(R1, 0x00001000)
T5D7C 000:976.319 - 0.003ms returns 0
T5D7C 000:976.323 JLINK_WriteReg(R2, 0x000000FF)
T5D7C 000:976.327 - 0.003ms returns 0
T5D7C 000:976.332 JLINK_WriteReg(R3, 0x00000000)
T5D7C 000:976.336 - 0.003ms returns 0
T5D7C 000:976.340 JLINK_WriteReg(R4, 0x00000000)
T5D7C 000:976.344 - 0.003ms returns 0
T5D7C 000:976.349 JLINK_WriteReg(R5, 0x00000000)
T5D7C 000:976.352 - 0.003ms returns 0
T5D7C 000:976.357 JLINK_WriteReg(R6, 0x00000000)
T5D7C 000:976.361 - 0.003ms returns 0
T5D7C 000:976.365 JLINK_WriteReg(R7, 0x00000000)
T5D7C 000:976.369 - 0.003ms returns 0
T5D7C 000:976.373 JLINK_WriteReg(R8, 0x00000000)
T5D7C 000:976.377 - 0.003ms returns 0
T5D7C 000:976.382 JLINK_WriteReg(R9, 0x200005B4)
T5D7C 000:976.386 - 0.003ms returns 0
T5D7C 000:976.390 JLINK_WriteReg(R10, 0x00000000)
T5D7C 000:976.394 - 0.004ms returns 0
T5D7C 000:976.399 JLINK_WriteReg(R11, 0x00000000)
T5D7C 000:976.402 - 0.003ms returns 0
T5D7C 000:976.407 JLINK_WriteReg(R12, 0x00000000)
T5D7C 000:976.411 - 0.004ms returns 0
T5D7C 000:976.415 JLINK_WriteReg(R13 (SP), 0x20002000)
T5D7C 000:976.420 - 0.004ms returns 0
T5D7C 000:976.424 JLINK_WriteReg(R14, 0x20000001)
T5D7C 000:976.428 - 0.004ms returns 0
T5D7C 000:976.433 JLINK_WriteReg(R15 (PC), 0x200000D4)
T5D7C 000:976.437 - 0.004ms returns 0
T5D7C 000:976.441 JLINK_WriteReg(XPSR, 0x01000000)
T5D7C 000:976.445 - 0.004ms returns 0
T5D7C 000:976.450 JLINK_WriteReg(MSP, 0x20002000)
T5D7C 000:976.454 - 0.003ms returns 0
T5D7C 000:976.458 JLINK_WriteReg(PSP, 0x20002000)
T5D7C 000:976.462 - 0.004ms returns 0
T5D7C 000:976.466 JLINK_WriteReg(CFBP, 0x00000000)
T5D7C 000:976.470 - 0.003ms returns 0
T5D7C 000:976.475 JLINK_SetBPEx(Addr = 0x20000000, Type = 0xFFFFFFF2)
T5D7C 000:976.480 - 0.004ms returns 0x00000003
T5D7C 000:976.484 JLINK_Go()
T5D7C 000:976.495   CPU_ReadMem(4 bytes @ 0xE0001000)
T5D7C 000:983.790 - 7.304ms
T5D7C 000:983.823 JLINK_IsHalted()
T5D7C 000:991.689   CPU_ReadMem(2 bytes @ 0x20000000)
T5D7C 000:992.926 - 9.103ms returns TRUE
T5D7C 000:992.939 JLINK_ReadReg(R15 (PC))
T5D7C 000:992.947 - 0.007ms returns 0x20000000
T5D7C 000:992.952 JLINK_ClrBPEx(BPHandle = 0x00000003)
T5D7C 000:992.957 - 0.004ms returns 0x00
T5D7C 000:992.962 JLINK_ReadReg(R0)
T5D7C 000:992.966 - 0.004ms returns 0x00000000
T5D7C 000:993.460 JLINK_HasError()
T5D7C 000:993.474 JLINK_WriteReg(R0, 0x00072000)
T5D7C 000:993.480 - 0.006ms returns 0
T5D7C 000:993.485 JLINK_WriteReg(R1, 0x00001000)
T5D7C 000:993.489 - 0.004ms returns 0
T5D7C 000:993.494 JLINK_WriteReg(R2, 0x000000FF)
T5D7C 000:993.498 - 0.004ms returns 0
T5D7C 000:993.503 JLINK_WriteReg(R3, 0x00000000)
T5D7C 000:993.507 - 0.004ms returns 0
T5D7C 000:993.511 JLINK_WriteReg(R4, 0x00000000)
T5D7C 000:993.515 - 0.004ms returns 0
T5D7C 000:993.520 JLINK_WriteReg(R5, 0x00000000)
T5D7C 000:993.524 - 0.004ms returns 0
T5D7C 000:993.529 JLINK_WriteReg(R6, 0x00000000)
T5D7C 000:993.533 - 0.004ms returns 0
T5D7C 000:993.538 JLINK_WriteReg(R7, 0x00000000)
T5D7C 000:993.547 - 0.009ms returns 0
T5D7C 000:993.562 JLINK_WriteReg(R8, 0x00000000)
T5D7C 000:993.566 - 0.014ms returns 0
T5D7C 000:993.571 JLINK_WriteReg(R9, 0x200005B4)
T5D7C 000:993.575 - 0.004ms returns 0
T5D7C 000:993.579 JLINK_WriteReg(R10, 0x00000000)
T5D7C 000:993.583 - 0.004ms returns 0
T5D7C 000:993.588 JLINK_WriteReg(R11, 0x00000000)
T5D7C 000:993.592 - 0.004ms returns 0
T5D7C 000:993.597 JLINK_WriteReg(R12, 0x00000000)
T5D7C 000:993.601 - 0.004ms returns 0
T5D7C 000:993.606 JLINK_WriteReg(R13 (SP), 0x20002000)
T5D7C 000:993.610 - 0.004ms returns 0
T5D7C 000:993.615 JLINK_WriteReg(R14, 0x20000001)
T5D7C 000:993.619 - 0.004ms returns 0
T5D7C 000:993.624 JLINK_WriteReg(R15 (PC), 0x20000288)
T5D7C 000:993.628 - 0.004ms returns 0
T5D7C 000:993.633 JLINK_WriteReg(XPSR, 0x01000000)
T5D7C 000:993.637 - 0.004ms returns 0
T5D7C 000:993.641 JLINK_WriteReg(MSP, 0x20002000)
T5D7C 000:993.646 - 0.004ms returns 0
T5D7C 000:993.650 JLINK_WriteReg(PSP, 0x20002000)
T5D7C 000:993.654 - 0.004ms returns 0
T5D7C 000:993.659 JLINK_WriteReg(CFBP, 0x00000000)
T5D7C 000:993.663 - 0.004ms returns 0
T5D7C 000:993.668 JLINK_SetBPEx(Addr = 0x20000000, Type = 0xFFFFFFF2)
T5D7C 000:993.674 - 0.005ms returns 0x00000004
T5D7C 000:993.678 JLINK_Go()
T5D7C 000:993.689   CPU_ReadMem(4 bytes @ 0xE0001000)
T5D7C 001:001.267 - 7.587ms
T5D7C 001:001.295 JLINK_IsHalted()
T5D7C 001:009.920   CPU_ReadMem(2 bytes @ 0x20000000)
T5D7C 001:011.092 - 9.796ms returns TRUE
T5D7C 001:011.108 JLINK_ReadReg(R15 (PC))
T5D7C 001:011.117 - 0.009ms returns 0x20000000
T5D7C 001:011.123 JLINK_ClrBPEx(BPHandle = 0x00000004)
T5D7C 001:011.138 - 0.005ms returns 0x00
T5D7C 001:011.144 JLINK_ReadReg(R0)
T5D7C 001:011.150 - 0.005ms returns 0x00000001
T5D7C 001:011.156 JLINK_HasError()
T5D7C 001:011.162 JLINK_WriteReg(R0, 0x00072000)
T5D7C 001:011.169 - 0.006ms returns 0
T5D7C 001:011.174 JLINK_WriteReg(R1, 0x00001000)
T5D7C 001:011.178 - 0.004ms returns 0
T5D7C 001:011.183 JLINK_WriteReg(R2, 0x000000FF)
T5D7C 001:011.187 - 0.004ms returns 0
T5D7C 001:011.192 JLINK_WriteReg(R3, 0x00000000)
T5D7C 001:011.196 - 0.004ms returns 0
T5D7C 001:011.200 JLINK_WriteReg(R4, 0x00000000)
T5D7C 001:011.204 - 0.004ms returns 0
T5D7C 001:011.209 JLINK_WriteReg(R5, 0x00000000)
T5D7C 001:011.213 - 0.004ms returns 0
T5D7C 001:011.218 JLINK_WriteReg(R6, 0x00000000)
T5D7C 001:011.222 - 0.004ms returns 0
T5D7C 001:011.226 JLINK_WriteReg(R7, 0x00000000)
T5D7C 001:011.230 - 0.004ms returns 0
T5D7C 001:011.235 JLINK_WriteReg(R8, 0x00000000)
T5D7C 001:011.239 - 0.004ms returns 0
T5D7C 001:011.244 JLINK_WriteReg(R9, 0x200005B4)
T5D7C 001:011.248 - 0.004ms returns 0
T5D7C 001:011.253 JLINK_WriteReg(R10, 0x00000000)
T5D7C 001:011.257 - 0.004ms returns 0
T5D7C 001:011.261 JLINK_WriteReg(R11, 0x00000000)
T5D7C 001:011.266 - 0.004ms returns 0
T5D7C 001:011.270 JLINK_WriteReg(R12, 0x00000000)
T5D7C 001:011.274 - 0.004ms returns 0
T5D7C 001:011.279 JLINK_WriteReg(R13 (SP), 0x20002000)
T5D7C 001:011.284 - 0.004ms returns 0
T5D7C 001:011.288 JLINK_WriteReg(R14, 0x20000001)
T5D7C 001:011.293 - 0.004ms returns 0
T5D7C 001:011.297 JLINK_WriteReg(R15 (PC), 0x200000D4)
T5D7C 001:011.301 - 0.004ms returns 0
T5D7C 001:011.306 JLINK_WriteReg(XPSR, 0x01000000)
T5D7C 001:011.310 - 0.004ms returns 0
T5D7C 001:011.315 JLINK_WriteReg(MSP, 0x20002000)
T5D7C 001:011.319 - 0.004ms returns 0
T5D7C 001:011.324 JLINK_WriteReg(PSP, 0x20002000)
T5D7C 001:011.328 - 0.004ms returns 0
T5D7C 001:011.332 JLINK_WriteReg(CFBP, 0x00000000)
T5D7C 001:011.336 - 0.004ms returns 0
T5D7C 001:011.342 JLINK_SetBPEx(Addr = 0x20000000, Type = 0xFFFFFFF2)
T5D7C 001:011.347 - 0.005ms returns 0x00000005
T5D7C 001:011.351 JLINK_Go()
T5D7C 001:011.362   CPU_ReadMem(4 bytes @ 0xE0001000)
T5D7C 001:019.560 - 8.208ms
T5D7C 001:019.580 JLINK_IsHalted()
T5D7C 001:027.239   CPU_ReadMem(2 bytes @ 0x20000000)
T5D7C 001:028.645 - 9.065ms returns TRUE
T5D7C 001:028.661 JLINK_ReadReg(R15 (PC))
T5D7C 001:028.668 - 0.007ms returns 0x20000000
T5D7C 001:028.709 JLINK_ClrBPEx(BPHandle = 0x00000005)
T5D7C 001:028.717 - 0.008ms returns 0x00
T5D7C 001:028.722 JLINK_ReadReg(R0)
T5D7C 001:028.727 - 0.004ms returns 0x00000000
T5D7C 001:029.175 JLINK_HasError()
T5D7C 001:029.185 JLINK_WriteReg(R0, 0x00073000)
T5D7C 001:029.191 - 0.006ms returns 0
T5D7C 001:029.196 JLINK_WriteReg(R1, 0x00001000)
T5D7C 001:029.200 - 0.004ms returns 0
T5D7C 001:029.205 JLINK_WriteReg(R2, 0x000000FF)
T5D7C 001:029.209 - 0.004ms returns 0
T5D7C 001:029.214 JLINK_WriteReg(R3, 0x00000000)
T5D7C 001:029.218 - 0.004ms returns 0
T5D7C 001:029.223 JLINK_WriteReg(R4, 0x00000000)
T5D7C 001:029.227 - 0.004ms returns 0
T5D7C 001:029.231 JLINK_WriteReg(R5, 0x00000000)
T5D7C 001:029.236 - 0.004ms returns 0
T5D7C 001:029.240 JLINK_WriteReg(R6, 0x00000000)
T5D7C 001:029.244 - 0.004ms returns 0
T5D7C 001:029.249 JLINK_WriteReg(R7, 0x00000000)
T5D7C 001:029.253 - 0.004ms returns 0
T5D7C 001:029.258 JLINK_WriteReg(R8, 0x00000000)
T5D7C 001:029.262 - 0.004ms returns 0
T5D7C 001:029.267 JLINK_WriteReg(R9, 0x200005B4)
T5D7C 001:029.271 - 0.004ms returns 0
T5D7C 001:029.276 JLINK_WriteReg(R10, 0x00000000)
T5D7C 001:029.280 - 0.004ms returns 0
T5D7C 001:029.285 JLINK_WriteReg(R11, 0x00000000)
T5D7C 001:029.289 - 0.004ms returns 0
T5D7C 001:029.293 JLINK_WriteReg(R12, 0x00000000)
T5D7C 001:029.297 - 0.004ms returns 0
T5D7C 001:029.302 JLINK_WriteReg(R13 (SP), 0x20002000)
T5D7C 001:029.307 - 0.004ms returns 0
T5D7C 001:029.311 JLINK_WriteReg(R14, 0x20000001)
T5D7C 001:029.316 - 0.004ms returns 0
T5D7C 001:029.321 JLINK_WriteReg(R15 (PC), 0x20000288)
T5D7C 001:029.325 - 0.004ms returns 0
T5D7C 001:029.330 JLINK_WriteReg(XPSR, 0x01000000)
T5D7C 001:029.334 - 0.004ms returns 0
T5D7C 001:029.338 JLINK_WriteReg(MSP, 0x20002000)
T5D7C 001:029.342 - 0.004ms returns 0
T5D7C 001:029.347 JLINK_WriteReg(PSP, 0x20002000)
T5D7C 001:029.351 - 0.004ms returns 0
T5D7C 001:029.356 JLINK_WriteReg(CFBP, 0x00000000)
T5D7C 001:029.360 - 0.004ms returns 0
T5D7C 001:029.365 JLINK_SetBPEx(Addr = 0x20000000, Type = 0xFFFFFFF2)
T5D7C 001:029.370 - 0.005ms returns 0x00000006
T5D7C 001:029.375 JLINK_Go()
T5D7C 001:029.386   CPU_ReadMem(4 bytes @ 0xE0001000)
T5D7C 001:036.997 - 7.621ms
T5D7C 001:037.014 JLINK_IsHalted()
T5D7C 001:044.739   CPU_ReadMem(2 bytes @ 0x20000000)
T5D7C 001:046.007 - 8.991ms returns TRUE
T5D7C 001:046.032 JLINK_ReadReg(R15 (PC))
T5D7C 001:046.041 - 0.009ms returns 0x20000000
T5D7C 001:046.048 JLINK_ClrBPEx(BPHandle = 0x00000006)
T5D7C 001:046.055 - 0.006ms returns 0x00
T5D7C 001:046.062 JLINK_ReadReg(R0)
T5D7C 001:046.068 - 0.006ms returns 0x00000001
T5D7C 001:046.075 JLINK_HasError()
T5D7C 001:046.083 JLINK_WriteReg(R0, 0x00073000)
T5D7C 001:046.089 - 0.006ms returns 0
T5D7C 001:046.096 JLINK_WriteReg(R1, 0x00001000)
T5D7C 001:046.102 - 0.005ms returns 0
T5D7C 001:046.108 JLINK_WriteReg(R2, 0x000000FF)
T5D7C 001:046.114 - 0.005ms returns 0
T5D7C 001:046.120 JLINK_WriteReg(R3, 0x00000000)
T5D7C 001:046.125 - 0.005ms returns 0
T5D7C 001:046.132 JLINK_WriteReg(R4, 0x00000000)
T5D7C 001:046.137 - 0.005ms returns 0
T5D7C 001:046.144 JLINK_WriteReg(R5, 0x00000000)
T5D7C 001:046.149 - 0.005ms returns 0
T5D7C 001:046.156 JLINK_WriteReg(R6, 0x00000000)
T5D7C 001:046.161 - 0.005ms returns 0
T5D7C 001:046.167 JLINK_WriteReg(R7, 0x00000000)
T5D7C 001:046.173 - 0.005ms returns 0
T5D7C 001:046.179 JLINK_WriteReg(R8, 0x00000000)
T5D7C 001:046.185 - 0.005ms returns 0
T5D7C 001:046.191 JLINK_WriteReg(R9, 0x200005B4)
T5D7C 001:046.197 - 0.005ms returns 0
T5D7C 001:046.203 JLINK_WriteReg(R10, 0x00000000)
T5D7C 001:046.208 - 0.005ms returns 0
T5D7C 001:046.215 JLINK_WriteReg(R11, 0x00000000)
T5D7C 001:046.220 - 0.005ms returns 0
T5D7C 001:046.227 JLINK_WriteReg(R12, 0x00000000)
T5D7C 001:046.232 - 0.005ms returns 0
T5D7C 001:046.239 JLINK_WriteReg(R13 (SP), 0x20002000)
T5D7C 001:046.245 - 0.006ms returns 0
T5D7C 001:046.251 JLINK_WriteReg(R14, 0x20000001)
T5D7C 001:046.256 - 0.005ms returns 0
T5D7C 001:046.263 JLINK_WriteReg(R15 (PC), 0x200000D4)
T5D7C 001:046.271 - 0.008ms returns 0
T5D7C 001:046.280 JLINK_WriteReg(XPSR, 0x01000000)
T5D7C 001:046.285 - 0.005ms returns 0
T5D7C 001:046.291 JLINK_WriteReg(MSP, 0x20002000)
T5D7C 001:046.297 - 0.005ms returns 0
T5D7C 001:046.303 JLINK_WriteReg(PSP, 0x20002000)
T5D7C 001:046.309 - 0.005ms returns 0
T5D7C 001:046.315 JLINK_WriteReg(CFBP, 0x00000000)
T5D7C 001:046.321 - 0.005ms returns 0
T5D7C 001:046.328 JLINK_SetBPEx(Addr = 0x20000000, Type = 0xFFFFFFF2)
T5D7C 001:046.334 - 0.006ms returns 0x00000007
T5D7C 001:046.341 JLINK_Go()
T5D7C 001:046.356   CPU_ReadMem(4 bytes @ 0xE0001000)
T5D7C 001:053.550 - 7.208ms
T5D7C 001:053.578 JLINK_IsHalted()
T5D7C 001:061.247   CPU_ReadMem(2 bytes @ 0x20000000)
T5D7C 001:062.630 - 9.051ms returns TRUE
T5D7C 001:062.661 JLINK_ReadReg(R15 (PC))
T5D7C 001:062.669 - 0.008ms returns 0x20000000
T5D7C 001:062.675 JLINK_ClrBPEx(BPHandle = 0x00000007)
T5D7C 001:062.680 - 0.005ms returns 0x00
T5D7C 001:062.685 JLINK_ReadReg(R0)
T5D7C 001:062.690 - 0.004ms returns 0x00000000
T5D7C 001:063.193 JLINK_HasError()
T5D7C 001:063.204 JLINK_WriteReg(R0, 0x00074000)
T5D7C 001:063.211 - 0.006ms returns 0
T5D7C 001:063.216 JLINK_WriteReg(R1, 0x00001000)
T5D7C 001:063.220 - 0.004ms returns 0
T5D7C 001:063.225 JLINK_WriteReg(R2, 0x000000FF)
T5D7C 001:063.230 - 0.004ms returns 0
T5D7C 001:063.235 JLINK_WriteReg(R3, 0x00000000)
T5D7C 001:063.239 - 0.004ms returns 0
T5D7C 001:063.244 JLINK_WriteReg(R4, 0x00000000)
T5D7C 001:063.248 - 0.004ms returns 0
T5D7C 001:063.253 JLINK_WriteReg(R5, 0x00000000)
T5D7C 001:063.257 - 0.004ms returns 0
T5D7C 001:063.262 JLINK_WriteReg(R6, 0x00000000)
T5D7C 001:063.267 - 0.004ms returns 0
T5D7C 001:063.271 JLINK_WriteReg(R7, 0x00000000)
T5D7C 001:063.276 - 0.004ms returns 0
T5D7C 001:063.281 JLINK_WriteReg(R8, 0x00000000)
T5D7C 001:063.285 - 0.004ms returns 0
T5D7C 001:063.290 JLINK_WriteReg(R9, 0x200005B4)
T5D7C 001:063.294 - 0.004ms returns 0
T5D7C 001:063.299 JLINK_WriteReg(R10, 0x00000000)
T5D7C 001:063.303 - 0.004ms returns 0
T5D7C 001:063.308 JLINK_WriteReg(R11, 0x00000000)
T5D7C 001:063.313 - 0.004ms returns 0
T5D7C 001:063.318 JLINK_WriteReg(R12, 0x00000000)
T5D7C 001:063.322 - 0.004ms returns 0
T5D7C 001:063.327 JLINK_WriteReg(R13 (SP), 0x20002000)
T5D7C 001:063.332 - 0.004ms returns 0
T5D7C 001:063.336 JLINK_WriteReg(R14, 0x20000001)
T5D7C 001:063.341 - 0.004ms returns 0
T5D7C 001:063.346 JLINK_WriteReg(R15 (PC), 0x20000288)
T5D7C 001:063.350 - 0.004ms returns 0
T5D7C 001:063.355 JLINK_WriteReg(XPSR, 0x01000000)
T5D7C 001:063.359 - 0.004ms returns 0
T5D7C 001:063.364 JLINK_WriteReg(MSP, 0x20002000)
T5D7C 001:063.369 - 0.004ms returns 0
T5D7C 001:063.374 JLINK_WriteReg(PSP, 0x20002000)
T5D7C 001:063.378 - 0.004ms returns 0
T5D7C 001:063.383 JLINK_WriteReg(CFBP, 0x00000000)
T5D7C 001:063.387 - 0.004ms returns 0
T5D7C 001:063.393 JLINK_SetBPEx(Addr = 0x20000000, Type = 0xFFFFFFF2)
T5D7C 001:063.398 - 0.005ms returns 0x00000008
T5D7C 001:063.403 JLINK_Go()
T5D7C 001:063.415   CPU_ReadMem(4 bytes @ 0xE0001000)
T5D7C 001:071.059 - 7.650ms
T5D7C 001:071.085 JLINK_IsHalted()
T5D7C 001:078.784   CPU_ReadMem(2 bytes @ 0x20000000)
T5D7C 001:080.026 - 8.940ms returns TRUE
T5D7C 001:080.046 JLINK_ReadReg(R15 (PC))
T5D7C 001:080.055 - 0.009ms returns 0x20000000
T5D7C 001:080.062 JLINK_ClrBPEx(BPHandle = 0x00000008)
T5D7C 001:080.068 - 0.006ms returns 0x00
T5D7C 001:080.075 JLINK_ReadReg(R0)
T5D7C 001:080.080 - 0.005ms returns 0x00000000
T5D7C 001:081.637 JLINK_HasError()
T5D7C 001:081.652 JLINK_WriteReg(R0, 0x00075000)
T5D7C 001:081.659 - 0.006ms returns 0
T5D7C 001:081.663 JLINK_WriteReg(R1, 0x00001000)
T5D7C 001:081.668 - 0.004ms returns 0
T5D7C 001:081.672 JLINK_WriteReg(R2, 0x000000FF)
T5D7C 001:081.676 - 0.004ms returns 0
T5D7C 001:081.680 JLINK_WriteReg(R3, 0x00000000)
T5D7C 001:081.684 - 0.004ms returns 0
T5D7C 001:081.689 JLINK_WriteReg(R4, 0x00000000)
T5D7C 001:081.693 - 0.003ms returns 0
T5D7C 001:081.697 JLINK_WriteReg(R5, 0x00000000)
T5D7C 001:081.701 - 0.004ms returns 0
T5D7C 001:081.752 JLINK_WriteReg(R6, 0x00000000)
T5D7C 001:081.758 - 0.006ms returns 0
T5D7C 001:081.763 JLINK_WriteReg(R7, 0x00000000)
T5D7C 001:081.766 - 0.003ms returns 0
T5D7C 001:081.771 JLINK_WriteReg(R8, 0x00000000)
T5D7C 001:081.775 - 0.003ms returns 0
T5D7C 001:081.779 JLINK_WriteReg(R9, 0x200005B4)
T5D7C 001:081.783 - 0.003ms returns 0
T5D7C 001:081.788 JLINK_WriteReg(R10, 0x00000000)
T5D7C 001:081.792 - 0.004ms returns 0
T5D7C 001:081.796 JLINK_WriteReg(R11, 0x00000000)
T5D7C 001:081.800 - 0.003ms returns 0
T5D7C 001:081.804 JLINK_WriteReg(R12, 0x00000000)
T5D7C 001:081.808 - 0.003ms returns 0
T5D7C 001:081.813 JLINK_WriteReg(R13 (SP), 0x20002000)
T5D7C 001:081.817 - 0.004ms returns 0
T5D7C 001:081.822 JLINK_WriteReg(R14, 0x20000001)
T5D7C 001:081.826 - 0.004ms returns 0
T5D7C 001:081.830 JLINK_WriteReg(R15 (PC), 0x20000288)
T5D7C 001:081.834 - 0.004ms returns 0
T5D7C 001:081.839 JLINK_WriteReg(XPSR, 0x01000000)
T5D7C 001:081.843 - 0.004ms returns 0
T5D7C 001:081.847 JLINK_WriteReg(MSP, 0x20002000)
T5D7C 001:081.851 - 0.004ms returns 0
T5D7C 001:081.855 JLINK_WriteReg(PSP, 0x20002000)
T5D7C 001:081.859 - 0.003ms returns 0
T5D7C 001:081.864 JLINK_WriteReg(CFBP, 0x00000000)
T5D7C 001:081.868 - 0.004ms returns 0
T5D7C 001:081.873 JLINK_SetBPEx(Addr = 0x20000000, Type = 0xFFFFFFF2)
T5D7C 001:081.878 - 0.005ms returns 0x00000009
T5D7C 001:081.883 JLINK_Go()
T5D7C 001:081.895   CPU_ReadMem(4 bytes @ 0xE0001000)
T5D7C 001:090.788 - 8.904ms
T5D7C 001:090.808 JLINK_IsHalted()
T5D7C 001:098.958   CPU_ReadMem(2 bytes @ 0x20000000)
T5D7C 001:100.965 - 10.156ms returns TRUE
T5D7C 001:100.983 JLINK_ReadReg(R15 (PC))
T5D7C 001:100.991 - 0.007ms returns 0x20000000
T5D7C 001:101.030 JLINK_ClrBPEx(BPHandle = 0x00000009)
T5D7C 001:101.037 - 0.006ms returns 0x00
T5D7C 001:101.042 JLINK_ReadReg(R0)
T5D7C 001:101.046 - 0.004ms returns 0x00000000
T5D7C 001:101.561 JLINK_HasError()
T5D7C 001:101.575 JLINK_WriteReg(R0, 0x00076000)
T5D7C 001:101.581 - 0.005ms returns 0
T5D7C 001:101.585 JLINK_WriteReg(R1, 0x00001000)
T5D7C 001:101.590 - 0.004ms returns 0
T5D7C 001:101.594 JLINK_WriteReg(R2, 0x000000FF)
T5D7C 001:101.598 - 0.003ms returns 0
T5D7C 001:101.602 JLINK_WriteReg(R3, 0x00000000)
T5D7C 001:101.606 - 0.003ms returns 0
T5D7C 001:101.611 JLINK_WriteReg(R4, 0x00000000)
T5D7C 001:101.615 - 0.004ms returns 0
T5D7C 001:101.619 JLINK_WriteReg(R5, 0x00000000)
T5D7C 001:101.623 - 0.003ms returns 0
T5D7C 001:101.627 JLINK_WriteReg(R6, 0x00000000)
T5D7C 001:101.631 - 0.003ms returns 0
T5D7C 001:101.636 JLINK_WriteReg(R7, 0x00000000)
T5D7C 001:101.639 - 0.003ms returns 0
T5D7C 001:101.644 JLINK_WriteReg(R8, 0x00000000)
T5D7C 001:101.648 - 0.004ms returns 0
T5D7C 001:101.652 JLINK_WriteReg(R9, 0x200005B4)
T5D7C 001:101.656 - 0.003ms returns 0
T5D7C 001:101.660 JLINK_WriteReg(R10, 0x00000000)
T5D7C 001:101.664 - 0.004ms returns 0
T5D7C 001:101.669 JLINK_WriteReg(R11, 0x00000000)
T5D7C 001:101.673 - 0.003ms returns 0
T5D7C 001:101.677 JLINK_WriteReg(R12, 0x00000000)
T5D7C 001:101.681 - 0.003ms returns 0
T5D7C 001:101.685 JLINK_WriteReg(R13 (SP), 0x20002000)
T5D7C 001:101.690 - 0.004ms returns 0
T5D7C 001:101.694 JLINK_WriteReg(R14, 0x20000001)
T5D7C 001:101.698 - 0.003ms returns 0
T5D7C 001:101.703 JLINK_WriteReg(R15 (PC), 0x20000288)
T5D7C 001:101.706 - 0.004ms returns 0
T5D7C 001:101.711 JLINK_WriteReg(XPSR, 0x01000000)
T5D7C 001:101.715 - 0.004ms returns 0
T5D7C 001:101.719 JLINK_WriteReg(MSP, 0x20002000)
T5D7C 001:101.723 - 0.003ms returns 0
T5D7C 001:101.727 JLINK_WriteReg(PSP, 0x20002000)
T5D7C 001:101.731 - 0.003ms returns 0
T5D7C 001:101.736 JLINK_WriteReg(CFBP, 0x00000000)
T5D7C 001:101.740 - 0.003ms returns 0
T5D7C 001:101.745 JLINK_SetBPEx(Addr = 0x20000000, Type = 0xFFFFFFF2)
T5D7C 001:101.750 - 0.005ms returns 0x0000000A
T5D7C 001:101.754 JLINK_Go()
T5D7C 001:101.766   CPU_ReadMem(4 bytes @ 0xE0001000)
T5D7C 001:109.279 - 7.524ms
T5D7C 001:109.293 JLINK_IsHalted()
T5D7C 001:117.107   CPU_ReadMem(2 bytes @ 0x20000000)
T5D7C 001:118.384 - 9.090ms returns TRUE
T5D7C 001:118.405 JLINK_ReadReg(R15 (PC))
T5D7C 001:118.415 - 0.009ms returns 0x20000000
T5D7C 001:118.420 JLINK_ClrBPEx(BPHandle = 0x0000000A)
T5D7C 001:118.425 - 0.004ms returns 0x00
T5D7C 001:118.430 JLINK_ReadReg(R0)
T5D7C 001:118.434 - 0.004ms returns 0x00000000
T5D7C 001:118.872 JLINK_HasError()
T5D7C 001:118.883 JLINK_WriteReg(R0, 0x00077000)
T5D7C 001:118.889 - 0.005ms returns 0
T5D7C 001:118.894 JLINK_WriteReg(R1, 0x00001000)
T5D7C 001:118.898 - 0.004ms returns 0
T5D7C 001:118.903 JLINK_WriteReg(R2, 0x000000FF)
T5D7C 001:118.906 - 0.003ms returns 0
T5D7C 001:118.911 JLINK_WriteReg(R3, 0x00000000)
T5D7C 001:118.915 - 0.003ms returns 0
T5D7C 001:118.919 JLINK_WriteReg(R4, 0x00000000)
T5D7C 001:118.923 - 0.004ms returns 0
T5D7C 001:118.927 JLINK_WriteReg(R5, 0x00000000)
T5D7C 001:118.931 - 0.003ms returns 0
T5D7C 001:118.936 JLINK_WriteReg(R6, 0x00000000)
T5D7C 001:118.940 - 0.003ms returns 0
T5D7C 001:118.944 JLINK_WriteReg(R7, 0x00000000)
T5D7C 001:118.948 - 0.003ms returns 0
T5D7C 001:118.952 JLINK_WriteReg(R8, 0x00000000)
T5D7C 001:118.956 - 0.003ms returns 0
T5D7C 001:118.961 JLINK_WriteReg(R9, 0x200005B4)
T5D7C 001:118.964 - 0.003ms returns 0
T5D7C 001:118.969 JLINK_WriteReg(R10, 0x00000000)
T5D7C 001:118.973 - 0.003ms returns 0
T5D7C 001:118.977 JLINK_WriteReg(R11, 0x00000000)
T5D7C 001:118.981 - 0.003ms returns 0
T5D7C 001:118.985 JLINK_WriteReg(R12, 0x00000000)
T5D7C 001:118.989 - 0.003ms returns 0
T5D7C 001:118.994 JLINK_WriteReg(R13 (SP), 0x20002000)
T5D7C 001:118.998 - 0.004ms returns 0
T5D7C 001:119.003 JLINK_WriteReg(R14, 0x20000001)
T5D7C 001:119.006 - 0.003ms returns 0
T5D7C 001:119.011 JLINK_WriteReg(R15 (PC), 0x20000288)
T5D7C 001:119.015 - 0.004ms returns 0
T5D7C 001:119.020 JLINK_WriteReg(XPSR, 0x01000000)
T5D7C 001:119.023 - 0.004ms returns 0
T5D7C 001:119.028 JLINK_WriteReg(MSP, 0x20002000)
T5D7C 001:119.032 - 0.003ms returns 0
T5D7C 001:119.037 JLINK_WriteReg(PSP, 0x20002000)
T5D7C 001:119.040 - 0.003ms returns 0
T5D7C 001:119.045 JLINK_WriteReg(CFBP, 0x00000000)
T5D7C 001:119.049 - 0.003ms returns 0
T5D7C 001:119.054 JLINK_SetBPEx(Addr = 0x20000000, Type = 0xFFFFFFF2)
T5D7C 001:119.069 - 0.015ms returns 0x0000000B
T5D7C 001:119.074 JLINK_Go()
T5D7C 001:119.085   CPU_ReadMem(4 bytes @ 0xE0001000)
T5D7C 001:127.331 - 8.256ms
T5D7C 001:127.351 JLINK_IsHalted()
T5D7C 001:134.599   CPU_ReadMem(2 bytes @ 0x20000000)
T5D7C 001:135.856 - 8.504ms returns TRUE
T5D7C 001:135.874 JLINK_ReadReg(R15 (PC))
T5D7C 001:135.882 - 0.008ms returns 0x20000000
T5D7C 001:135.923 JLINK_ClrBPEx(BPHandle = 0x0000000B)
T5D7C 001:135.929 - 0.005ms returns 0x00
T5D7C 001:135.934 JLINK_ReadReg(R0)
T5D7C 001:135.938 - 0.004ms returns 0x00000000
T5D7C 001:136.500 JLINK_HasError()
T5D7C 001:136.512 JLINK_WriteReg(R0, 0x00078000)
T5D7C 001:136.519 - 0.006ms returns 0
T5D7C 001:136.524 JLINK_WriteReg(R1, 0x00001000)
T5D7C 001:136.528 - 0.004ms returns 0
T5D7C 001:136.532 JLINK_WriteReg(R2, 0x000000FF)
T5D7C 001:136.536 - 0.004ms returns 0
T5D7C 001:136.541 JLINK_WriteReg(R3, 0x00000000)
T5D7C 001:136.545 - 0.003ms returns 0
T5D7C 001:136.549 JLINK_WriteReg(R4, 0x00000000)
T5D7C 001:136.553 - 0.003ms returns 0
T5D7C 001:136.557 JLINK_WriteReg(R5, 0x00000000)
T5D7C 001:136.561 - 0.004ms returns 0
T5D7C 001:136.566 JLINK_WriteReg(R6, 0x00000000)
T5D7C 001:136.570 - 0.003ms returns 0
T5D7C 001:136.574 JLINK_WriteReg(R7, 0x00000000)
T5D7C 001:136.578 - 0.003ms returns 0
T5D7C 001:136.582 JLINK_WriteReg(R8, 0x00000000)
T5D7C 001:136.586 - 0.003ms returns 0
T5D7C 001:136.590 JLINK_WriteReg(R9, 0x200005B4)
T5D7C 001:136.594 - 0.003ms returns 0
T5D7C 001:136.599 JLINK_WriteReg(R10, 0x00000000)
T5D7C 001:136.603 - 0.004ms returns 0
T5D7C 001:136.607 JLINK_WriteReg(R11, 0x00000000)
T5D7C 001:136.611 - 0.003ms returns 0
T5D7C 001:136.615 JLINK_WriteReg(R12, 0x00000000)
T5D7C 001:136.619 - 0.003ms returns 0
T5D7C 001:136.624 JLINK_WriteReg(R13 (SP), 0x20002000)
T5D7C 001:136.628 - 0.004ms returns 0
T5D7C 001:136.633 JLINK_WriteReg(R14, 0x20000001)
T5D7C 001:136.639 - 0.006ms returns 0
T5D7C 001:136.645 JLINK_WriteReg(R15 (PC), 0x20000288)
T5D7C 001:136.649 - 0.004ms returns 0
T5D7C 001:136.662 JLINK_WriteReg(XPSR, 0x01000000)
T5D7C 001:136.666 - 0.012ms returns 0
T5D7C 001:136.670 JLINK_WriteReg(MSP, 0x20002000)
T5D7C 001:136.674 - 0.003ms returns 0
T5D7C 001:136.679 JLINK_WriteReg(PSP, 0x20002000)
T5D7C 001:136.683 - 0.003ms returns 0
T5D7C 001:136.687 JLINK_WriteReg(CFBP, 0x00000000)
T5D7C 001:136.691 - 0.003ms returns 0
T5D7C 001:136.696 JLINK_SetBPEx(Addr = 0x20000000, Type = 0xFFFFFFF2)
T5D7C 001:136.701 - 0.005ms returns 0x0000000C
T5D7C 001:136.706 JLINK_Go()
T5D7C 001:136.718   CPU_ReadMem(4 bytes @ 0xE0001000)
T5D7C 001:145.166 - 8.458ms
T5D7C 001:145.220 JLINK_IsHalted()
T5D7C 001:152.239   CPU_ReadMem(2 bytes @ 0x20000000)
T5D7C 001:153.383 - 8.163ms returns TRUE
T5D7C 001:153.398 JLINK_ReadReg(R15 (PC))
T5D7C 001:153.406 - 0.008ms returns 0x20000000
T5D7C 001:153.412 JLINK_ClrBPEx(BPHandle = 0x0000000C)
T5D7C 001:153.417 - 0.005ms returns 0x00
T5D7C 001:153.423 JLINK_ReadReg(R0)
T5D7C 001:153.428 - 0.004ms returns 0x00000000
T5D7C 001:153.922 JLINK_HasError()
T5D7C 001:153.943 JLINK_WriteReg(R0, 0x00079000)
T5D7C 001:153.950 - 0.015ms returns 0
T5D7C 001:153.954 JLINK_WriteReg(R1, 0x00001000)
T5D7C 001:153.958 - 0.003ms returns 0
T5D7C 001:153.963 JLINK_WriteReg(R2, 0x000000FF)
T5D7C 001:153.967 - 0.004ms returns 0
T5D7C 001:153.971 JLINK_WriteReg(R3, 0x00000000)
T5D7C 001:153.975 - 0.004ms returns 0
T5D7C 001:153.980 JLINK_WriteReg(R4, 0x00000000)
T5D7C 001:153.984 - 0.003ms returns 0
T5D7C 001:153.988 JLINK_WriteReg(R5, 0x00000000)
T5D7C 001:153.992 - 0.003ms returns 0
T5D7C 001:153.996 JLINK_WriteReg(R6, 0x00000000)
T5D7C 001:154.000 - 0.003ms returns 0
T5D7C 001:154.005 JLINK_WriteReg(R7, 0x00000000)
T5D7C 001:154.008 - 0.003ms returns 0
T5D7C 001:154.013 JLINK_WriteReg(R8, 0x00000000)
T5D7C 001:154.017 - 0.004ms returns 0
T5D7C 001:154.021 JLINK_WriteReg(R9, 0x200005B4)
T5D7C 001:154.025 - 0.003ms returns 0
T5D7C 001:154.030 JLINK_WriteReg(R10, 0x00000000)
T5D7C 001:154.034 - 0.004ms returns 0
T5D7C 001:154.038 JLINK_WriteReg(R11, 0x00000000)
T5D7C 001:154.042 - 0.003ms returns 0
T5D7C 001:154.046 JLINK_WriteReg(R12, 0x00000000)
T5D7C 001:154.050 - 0.003ms returns 0
T5D7C 001:154.055 JLINK_WriteReg(R13 (SP), 0x20002000)
T5D7C 001:154.059 - 0.004ms returns 0
T5D7C 001:154.064 JLINK_WriteReg(R14, 0x20000001)
T5D7C 001:154.068 - 0.003ms returns 0
T5D7C 001:154.072 JLINK_WriteReg(R15 (PC), 0x20000288)
T5D7C 001:154.076 - 0.004ms returns 0
T5D7C 001:154.081 JLINK_WriteReg(XPSR, 0x01000000)
T5D7C 001:154.085 - 0.004ms returns 0
T5D7C 001:154.089 JLINK_WriteReg(MSP, 0x20002000)
T5D7C 001:154.093 - 0.004ms returns 0
T5D7C 001:154.098 JLINK_WriteReg(PSP, 0x20002000)
T5D7C 001:154.102 - 0.004ms returns 0
T5D7C 001:154.106 JLINK_WriteReg(CFBP, 0x00000000)
T5D7C 001:154.110 - 0.004ms returns 0
T5D7C 001:154.115 JLINK_SetBPEx(Addr = 0x20000000, Type = 0xFFFFFFF2)
T5D7C 001:154.120 - 0.005ms returns 0x0000000D
T5D7C 001:154.125 JLINK_Go()
T5D7C 001:154.135   CPU_ReadMem(4 bytes @ 0xE0001000)
T5D7C 001:162.008 - 7.882ms
T5D7C 001:162.033 JLINK_IsHalted()
T5D7C 001:168.832   CPU_ReadMem(2 bytes @ 0x20000000)
T5D7C 001:170.076 - 8.041ms returns TRUE
T5D7C 001:170.093 JLINK_ReadReg(R15 (PC))
T5D7C 001:170.101 - 0.007ms returns 0x20000000
T5D7C 001:170.106 JLINK_ClrBPEx(BPHandle = 0x0000000D)
T5D7C 001:170.111 - 0.004ms returns 0x00
T5D7C 001:170.116 JLINK_ReadReg(R0)
T5D7C 001:170.121 - 0.004ms returns 0x00000000
T5D7C 001:170.567 JLINK_HasError()
T5D7C 001:170.580 JLINK_WriteReg(R0, 0x0007A000)
T5D7C 001:170.586 - 0.006ms returns 0
T5D7C 001:170.591 JLINK_WriteReg(R1, 0x00001000)
T5D7C 001:170.595 - 0.004ms returns 0
T5D7C 001:170.600 JLINK_WriteReg(R2, 0x000000FF)
T5D7C 001:170.604 - 0.004ms returns 0
T5D7C 001:170.609 JLINK_WriteReg(R3, 0x00000000)
T5D7C 001:170.613 - 0.004ms returns 0
T5D7C 001:170.618 JLINK_WriteReg(R4, 0x00000000)
T5D7C 001:170.622 - 0.004ms returns 0
T5D7C 001:170.629 JLINK_WriteReg(R5, 0x00000000)
T5D7C 001:170.636 - 0.006ms returns 0
T5D7C 001:170.640 JLINK_WriteReg(R6, 0x00000000)
T5D7C 001:170.644 - 0.004ms returns 0
T5D7C 001:170.649 JLINK_WriteReg(R7, 0x00000000)
T5D7C 001:170.653 - 0.004ms returns 0
T5D7C 001:170.658 JLINK_WriteReg(R8, 0x00000000)
T5D7C 001:170.662 - 0.004ms returns 0
T5D7C 001:170.667 JLINK_WriteReg(R9, 0x200005B4)
T5D7C 001:170.671 - 0.004ms returns 0
T5D7C 001:170.675 JLINK_WriteReg(R10, 0x00000000)
T5D7C 001:170.680 - 0.004ms returns 0
T5D7C 001:170.684 JLINK_WriteReg(R11, 0x00000000)
T5D7C 001:170.688 - 0.004ms returns 0
T5D7C 001:170.693 JLINK_WriteReg(R12, 0x00000000)
T5D7C 001:170.697 - 0.004ms returns 0
T5D7C 001:170.702 JLINK_WriteReg(R13 (SP), 0x20002000)
T5D7C 001:170.706 - 0.004ms returns 0
T5D7C 001:170.711 JLINK_WriteReg(R14, 0x20000001)
T5D7C 001:170.715 - 0.004ms returns 0
T5D7C 001:170.720 JLINK_WriteReg(R15 (PC), 0x20000288)
T5D7C 001:170.724 - 0.004ms returns 0
T5D7C 001:170.729 JLINK_WriteReg(XPSR, 0x01000000)
T5D7C 001:170.733 - 0.004ms returns 0
T5D7C 001:170.738 JLINK_WriteReg(MSP, 0x20002000)
T5D7C 001:170.742 - 0.004ms returns 0
T5D7C 001:170.746 JLINK_WriteReg(PSP, 0x20002000)
T5D7C 001:170.751 - 0.004ms returns 0
T5D7C 001:170.755 JLINK_WriteReg(CFBP, 0x00000000)
T5D7C 001:170.759 - 0.004ms returns 0
T5D7C 001:170.765 JLINK_SetBPEx(Addr = 0x20000000, Type = 0xFFFFFFF2)
T5D7C 001:170.770 - 0.005ms returns 0x0000000E
T5D7C 001:170.775 JLINK_Go()
T5D7C 001:170.786   CPU_ReadMem(4 bytes @ 0xE0001000)
T5D7C 001:178.864 - 8.088ms
T5D7C 001:178.884 JLINK_IsHalted()
T5D7C 001:185.524   CPU_ReadMem(2 bytes @ 0x20000000)
T5D7C 001:186.890 - 8.006ms returns TRUE
T5D7C 001:186.912 JLINK_ReadReg(R15 (PC))
T5D7C 001:186.921 - 0.009ms returns 0x20000000
T5D7C 001:186.928 JLINK_ClrBPEx(BPHandle = 0x0000000E)
T5D7C 001:186.933 - 0.005ms returns 0x00
T5D7C 001:186.939 JLINK_ReadReg(R0)
T5D7C 001:186.945 - 0.005ms returns 0x00000000
T5D7C 001:187.876 JLINK_HasError()
T5D7C 001:187.898 JLINK_WriteReg(R0, 0x0007B000)
T5D7C 001:187.907 - 0.009ms returns 0
T5D7C 001:187.913 JLINK_WriteReg(R1, 0x00001000)
T5D7C 001:187.918 - 0.005ms returns 0
T5D7C 001:187.924 JLINK_WriteReg(R2, 0x000000FF)
T5D7C 001:187.928 - 0.004ms returns 0
T5D7C 001:187.934 JLINK_WriteReg(R3, 0x00000000)
T5D7C 001:187.939 - 0.005ms returns 0
T5D7C 001:187.945 JLINK_WriteReg(R4, 0x00000000)
T5D7C 001:187.950 - 0.005ms returns 0
T5D7C 001:187.955 JLINK_WriteReg(R5, 0x00000000)
T5D7C 001:187.960 - 0.005ms returns 0
T5D7C 001:187.966 JLINK_WriteReg(R6, 0x00000000)
T5D7C 001:187.971 - 0.004ms returns 0
T5D7C 001:187.977 JLINK_WriteReg(R7, 0x00000000)
T5D7C 001:187.981 - 0.005ms returns 0
T5D7C 001:187.988 JLINK_WriteReg(R8, 0x00000000)
T5D7C 001:187.993 - 0.005ms returns 0
T5D7C 001:187.998 JLINK_WriteReg(R9, 0x200005B4)
T5D7C 001:188.002 - 0.004ms returns 0
T5D7C 001:188.007 JLINK_WriteReg(R10, 0x00000000)
T5D7C 001:188.012 - 0.004ms returns 0
T5D7C 001:188.017 JLINK_WriteReg(R11, 0x00000000)
T5D7C 001:188.021 - 0.004ms returns 0
T5D7C 001:188.026 JLINK_WriteReg(R12, 0x00000000)
T5D7C 001:188.031 - 0.004ms returns 0
T5D7C 001:188.036 JLINK_WriteReg(R13 (SP), 0x20002000)
T5D7C 001:188.041 - 0.005ms returns 0
T5D7C 001:188.046 JLINK_WriteReg(R14, 0x20000001)
T5D7C 001:188.050 - 0.004ms returns 0
T5D7C 001:188.055 JLINK_WriteReg(R15 (PC), 0x20000288)
T5D7C 001:188.060 - 0.004ms returns 0
T5D7C 001:188.065 JLINK_WriteReg(XPSR, 0x01000000)
T5D7C 001:188.070 - 0.004ms returns 0
T5D7C 001:188.075 JLINK_WriteReg(MSP, 0x20002000)
T5D7C 001:188.079 - 0.004ms returns 0
T5D7C 001:188.084 JLINK_WriteReg(PSP, 0x20002000)
T5D7C 001:188.088 - 0.004ms returns 0
T5D7C 001:188.094 JLINK_WriteReg(CFBP, 0x00000000)
T5D7C 001:188.098 - 0.004ms returns 0
T5D7C 001:188.104 JLINK_SetBPEx(Addr = 0x20000000, Type = 0xFFFFFFF2)
T5D7C 001:188.110 - 0.006ms returns 0x0000000F
T5D7C 001:188.115 JLINK_Go()
T5D7C 001:188.129   CPU_ReadMem(4 bytes @ 0xE0001000)
T5D7C 001:195.295 - 7.180ms
T5D7C 001:195.323 JLINK_IsHalted()
T5D7C 001:202.518   CPU_ReadMem(2 bytes @ 0x20000000)
T5D7C 001:204.230 - 8.906ms returns TRUE
T5D7C 001:204.264 JLINK_ReadReg(R15 (PC))
T5D7C 001:204.283 - 0.018ms returns 0x20000000
T5D7C 001:204.365 JLINK_ClrBPEx(BPHandle = 0x0000000F)
T5D7C 001:204.392 - 0.028ms returns 0x00
T5D7C 001:204.399 JLINK_ReadReg(R0)
T5D7C 001:204.405 - 0.006ms returns 0x00000000
T5D7C 001:204.906 JLINK_HasError()
T5D7C 001:204.915 JLINK_WriteReg(R0, 0x0007C000)
T5D7C 001:204.921 - 0.005ms returns 0
T5D7C 001:204.926 JLINK_WriteReg(R1, 0x00001000)
T5D7C 001:204.930 - 0.004ms returns 0
T5D7C 001:204.934 JLINK_WriteReg(R2, 0x000000FF)
T5D7C 001:204.938 - 0.003ms returns 0
T5D7C 001:204.942 JLINK_WriteReg(R3, 0x00000000)
T5D7C 001:204.946 - 0.003ms returns 0
T5D7C 001:204.951 JLINK_WriteReg(R4, 0x00000000)
T5D7C 001:204.955 - 0.003ms returns 0
T5D7C 001:204.959 JLINK_WriteReg(R5, 0x00000000)
T5D7C 001:204.963 - 0.003ms returns 0
T5D7C 001:204.967 JLINK_WriteReg(R6, 0x00000000)
T5D7C 001:204.971 - 0.003ms returns 0
T5D7C 001:204.975 JLINK_WriteReg(R7, 0x00000000)
T5D7C 001:204.979 - 0.003ms returns 0
T5D7C 001:204.984 JLINK_WriteReg(R8, 0x00000000)
T5D7C 001:204.988 - 0.004ms returns 0
T5D7C 001:204.992 JLINK_WriteReg(R9, 0x200005B4)
T5D7C 001:204.996 - 0.003ms returns 0
T5D7C 001:205.000 JLINK_WriteReg(R10, 0x00000000)
T5D7C 001:205.004 - 0.004ms returns 0
T5D7C 001:205.009 JLINK_WriteReg(R11, 0x00000000)
T5D7C 001:205.013 - 0.003ms returns 0
T5D7C 001:205.017 JLINK_WriteReg(R12, 0x00000000)
T5D7C 001:205.021 - 0.003ms returns 0
T5D7C 001:205.025 JLINK_WriteReg(R13 (SP), 0x20002000)
T5D7C 001:205.030 - 0.004ms returns 0
T5D7C 001:205.034 JLINK_WriteReg(R14, 0x20000001)
T5D7C 001:205.038 - 0.003ms returns 0
T5D7C 001:205.043 JLINK_WriteReg(R15 (PC), 0x20000288)
T5D7C 001:205.046 - 0.004ms returns 0
T5D7C 001:205.051 JLINK_WriteReg(XPSR, 0x01000000)
